
T4080 000:001 SEGGER J-Link V6.20g Log File (0001ms, 0002ms total)
T4080 000:001 DLL Compiled: Oct 20 2017 17:09:27 (0001ms, 0002ms total)
T4080 000:001 Logging started @ 2017-10-25 02:03 (0001ms, 0002ms total)
T4080 000:002 JLINK_SetWarnOutHandler(...) (0000ms, 0002ms total)
T4080 000:002 JLINK_OpenEx(...)
Firmware: J-Link OpenSDA 2 compiled May  6 2016 11:04:17
Hardware: V1.00
S/N: 621000000
TELNET listener socket opened on port 19021WEBSRV 
Starting webserver (0023ms, 0025ms total)
T4080 000:002 WEBSRV Webserver running on local port 19080 (0023ms, 0025ms total)
T4080 000:002   returns O.K. (0023ms, 0025ms total)
T4080 000:025 JLINK_GetEmuCaps()  returns 0xB86A5A33 (0000ms, 0025ms total)
T4080 000:025 JLINK_TIF_GetAvailable(...) (0000ms, 0025ms total)
T4080 000:025 JLINK_SetErrorOutHandler(...) (0000ms, 0025ms total)
T4080 000:025 JLINK_ExecCommand("ProjectFile = "C:\Users\samue\Documents\workspace_keil\Boards\NXP\FRDM-KW41Z\lab1\JLinkSettings.ini"", ...). C:\Program Files (x86)\SEGGER\JLink_V620g\JLinkDevices.xml evaluated successfully.  returns 0x00 (0123ms, 0148ms total)
T4080 000:149 JLINK_ExecCommand("Device = MKW41Z512xxx4", ...). Device "MKW41Z512XXX4" selected.  returns 0x00 (0001ms, 0149ms total)
T4080 000:150 JLINK_ExecCommand("DisableConnectionTimeout", ...).   returns 0x01 (0000ms, 0149ms total)
T4080 000:150 JLINK_GetHardwareVersion()  returns 0x2710 (0000ms, 0149ms total)
T4080 000:150 JLINK_GetDLLVersion()  returns 62007 (0000ms, 0149ms total)
T4080 000:150 JLINK_GetFirmwareString(...) (0000ms, 0149ms total)
T4080 000:150 JLINK_GetDLLVersion()  returns 62007 (0000ms, 0149ms total)
T4080 000:150 JLINK_GetCompileDateTime() (0000ms, 0149ms total)
T4080 000:150 JLINK_GetFirmwareString(...) (0000ms, 0149ms total)
T4080 000:150 JLINK_GetHardwareVersion()  returns 0x2710 (0000ms, 0149ms total)
T4080 000:150 JLINK_TIF_Select(JLINKARM_TIF_SWD)  returns 0x00 (0001ms, 0150ms total)
T4080 000:151 JLINK_SetSpeed(5000) (0000ms, 0150ms total)
T4080 000:151 JLINK_GetId()InitTarget() >0x10B TIF> >0x0D TIF> >0x28 TIF> >0x0D TIF> >0x28 TIF> >0x0D TIF> >0x28 TIF> >0x0D TIF> >0x28 TIF> >0x0D TIF> >0x21 TIF> >0x0D TIF> >0x28 TIF> >0x0D TIF> >0x21 TIF> >0x0D TIF> >0x21 TIF> >0x0D TIF> >0x21 TIF> >0x0D TIF> >0x21 TIF> >0x0D TIF> >0x21 TIF> >0x0D TIF> >0x21 TIF> >0x0D TIF> >0x21 TIF> >0x0D TIF> >0x21 TIF> >0x0D TIF> >0x21 TIF> >0x0D TIF> >0x21 TIF> >0x0D TIF> >0x21 TIF> >0x0D TIF> >0x21 TIF> >0x0D TIF> >0x21 TIF> >0x0D TIF> >0x21 TIF> >0x0D TIF>
 >0x21 TIF> >0x0D TIF> >0x21 TIF> >0x0D TIF> >0x21 TIF> >0x0D TIF> >0x21 TIF> >0x0D TIF> >0x21 TIF> >0x0D TIF> >0x21 TIF> >0x0D TIF> >0x21 TIF> >0x0D TIF> >0x21 TIF> >0x0D TIF> >0x21 TIF> >0x0D TIF> >0x21 TIF> >0x0D TIF> >0x21 TIF> >0x0D TIF> >0x21 TIF> >0x0D TIF> >0x21 TIF> >0x0D TIF> >0x21 TIF> >0x0D TIF> >0x21 TIF> >0x0D TIF> >0x21 TIF> >0x0D TIF> >0x21 TIF> >0x0D TIF> >0x21 TIF> >0x0D TIF> >0x21 TIF> >0x0D TIF> >0x21 TIF> >0x0D TIF> >0x21 TIF> >0x0D TIF> >0x21 TIF> >0x0D TIF> >0x21 TIF> >0x0D TIF>
 >0x21 TIF> >0x0D TIF> >0x21 TIF> >0x0D TIF> >0x21 TIF> >0x0D TIF> >0x21 TIF> >0x0D TIF> >0x21 TIF> >0x0D TIF> >0x21 TIF> >0x0D TIF> >0x21 TIF> >0x0D TIF> >0x21 TIF> >0x0D TIF> >0x21 TIF> >0x0D TIF> >0x21 TIF> >0x0D TIF> >0x21 TIF> >0x0D TIF> >0x21 TIF> >0x0D TIF> >0x21 TIF> >0x0D TIF> >0x21 TIF> >0x0D TIF> >0x21 TIF> >0x0D TIF> >0x21 TIF> >0x0D TIF> >0x21 TIF> >0x0D TIF> >0x21 TIF> >0x0D TIF> >0x21 TIF> >0x0D TIF> >0x21 TIF> >0x0D TIF> >0x21 TIF> >0x0D TIF> >0x21 TIF> >0x0D TIF> >0x21 TIF> >0x0D TIF>
 >0x21 TIF> >0x0D TIF> >0x21 TIF> >0x0D TIF> >0x21 TIF> >0x0D TIF> >0x21 TIF> >0x0D TIF> >0x21 TIF> >0x0D TIF> >0x21 TIF> >0x0D TIF> >0x21 TIF> >0x0D TIF> >0x21 TIF> >0x0D TIF> >0x21 TIF> >0x0D TIF> >0x21 TIF> >0x0D TIF> >0x21 TIF> >0x0D TIF> >0x21 TIF> >0x0D TIF> >0x21 TIF> >0x0D TIF> >0x21 TIF> >0x0D TIF> >0x21 TIF> >0x0D TIF> >0x21 TIF> >0x0D TIF> >0x21 TIF> >0x0D TIF> >0x21 TIF> >0x0D TIF> >0x21 TIF> >0x0D TIF> >0x21 TIF> >0x0D TIF> >0x21 TIF> >0x0D TIF> >0x21 TIF> >0x0D TIF> >0x21 TIF> >0x0D TIF>
 >0x21 TIF> >0x0D TIF> >0x21 TIF> >0x0D TIF> >0x21 TIF> >0x0D TIF> >0x21 TIF> >0x0D TIF> >0x21 TIF> >0x0D TIF> >0x21 TIF> >0x0D TIF> >0x21 TIF> >0x0D TIF> >0x21 TIF> >0x0D TIF> >0x21 TIF> >0x0D TIF> >0x21 TIF> >0x0D TIF> >0x21 TIF> >0x0D TIF> >0x21 TIF> >0x0D TIF> >0x21 TIF> >0x0D TIF> >0x21 TIF> >0x0D TIF> >0x21 TIF> >0x0D TIF> >0x21 TIF> >0x0D TIF> >0x21 TIF> >0x0D TIF> >0x21 TIF> >0x0D TIF> >0x21 TIF> >0x0D TIF> >0x21 TIF> >0x0D TIF> >0x21 TIF> >0x0D TIF> >0x21 TIF> >0x0D TIF> >0x21 TIF> >0x0D TIF>
 >0x21 TIF> >0x0D TIF> >0x21 TIF> >0x0D TIF> >0x21 TIF> >0x0D TIF> >0x21 TIF> >0x0D TIF> >0x21 TIF> >0x0D TIF> >0x21 TIF> >0x0D TIF> >0x21 TIF> >0x0D TIF> >0x21 TIF> >0x0D TIF> >0x21 TIF> >0x0D TIF> >0x21 TIF> >0x0D TIF> >0x21 TIF> >0x0D TIF> >0x21 TIF> >0x0D TIF> >0x21 TIF> >0x0D TIF> >0x21 TIF> >0x0D TIF> >0x21 TIF> >0x0D TIF> >0x21 TIF> >0x0D TIF> >0x21 TIF> >0x0D TIF> >0x21 TIF> >0x0D TIF> >0x21 TIF> >0x0D TIF> >0x21 TIF> >0x0D TIF> >0x21 TIF> >0x0D TIF> >0x21 TIF> >0x0D TIF> >0x21 TIF> >0x0D TIF>
 >0x21 TIF> >0x0D TIF> >0x21 TIF> >0x0D TIF> >0x21 TIF> >0x0D TIF> >0x21 TIF> >0x0D TIF> >0x21 TIF> >0x0D TIF> >0x21 TIF> >0x0D TIF> >0x21 TIF> >0x0D TIF> >0x21 TIF> >0x0D TIF> >0x21 TIF> >0x0D TIF> >0x21 TIF> >0x0D TIF> >0x21 TIF> >0x0D TIF> >0x21 TIF> >0x0D TIF> >0x21 TIF> >0x0D TIF> >0x21 TIF> >0x0D TIF> >0x21 TIF> >0x0D TIF> >0x21 TIF> >0x0D TIF> >0x21 TIF> >0x0D TIF> >0x21 TIF> >0x0D TIF> >0x21 TIF> >0x0D TIF> >0x28 TIF> >0x0D TIF> >0x28 TIF> >0x0D TIF> >0x28 TIF> >0x0D TIF> >0x21 TIF> >0x0D TIF>
 >0x21 TIF> >0x10B TIF>Found SW-DP with ID 0x0BC11477 >0x0D TIF> >0x28 TIF> >0x0D TIF> >0x28 TIF> >0x0D TIF> >0x28 TIF> >0x0D TIF> >0x28 TIF> >0x0D TIF> >0x21 TIF> >0x0D TIF> >0x28 TIF>Scanning AP map to find all available APs >0x0D TIF> >0x28 TIF> >0x0D TIF> >0x21 TIF> >0x0D TIF> >0x21 TIF> >0x0D TIF> >0x28 TIF> >0x0D TIF> >0x21 TIF> >0x0D TIF> >0x21 TIF> >0x0D TIF> >0x28 TIF> >0x0D TIF> >0x21 TIF> >0x0D TIF> >0x21 TIF>AP[2]: Stopped AP scan as end of AP map has been reached
AP[0]: AHB-AP (IDR: 0x04770031)AP[1]: JTAG-AP (IDR: 0x001C0020)Iterating through AP map to find AHB-AP to use >0x42 TIF> >0x28 TIF> >0x0D TIF> >0x21 TIF> >0x0D TIF> >0x21 TIF> >0x42 TIF> >0x28 TIF> >0x0D TIF> >0x28 TIF> >0x0D TIF> >0x28 TIF> >0x0D TIF> >0x21 TIF> >0x0D TIF> >0x21 TIF>AP[0]: Core foundAP[0]: AHB-AP ROM base: 0xF0002000 >0x0D TIF> >0x28 TIF> >0x0D TIF> >0x28 TIF> >0x0D TIF> >0x28 TIF> >0x0D TIF> >0x21 TIF> >0x0D TIF> >0x21 TIF>CPUID register: 0x410CC601. Implementer code: 0x41 (ARM)
Found Cortex-M0 r0p1, Little endian. -- CPU_ReadMem(4 bytes @ 0xE000EDF0) -- CPU_WriteMem(4 bytes @ 0xE000EDF0) -- CPU_ReadMem(4 bytes @ 0xE0002000)FPUnit: 2 code (BP) slots and 0 literal slots -- CPU_ReadMem(4 bytes @ 0xE000EDFC) -- CPU_WriteMem(4 bytes @ 0xE000EDFC) -- CPU_ReadMem(4 bytes @ 0xE0001000) -- CPU_WriteMem(4 bytes @ 0xE0001000)CoreSight components:ROMTbl[0] @ F0002000 -- CPU_ReadMem(16 bytes @ 0xF0002000) -- CPU_ReadMem(16 bytes @ 0xF0000FF0) -- CPU_ReadMem(16 bytes @ 0xF0000FE0)
ROMTbl[0][0]: F0000000, CID: B105900D, PID: 001BB932 MTB-M0+ -- CPU_ReadMem(16 bytes @ 0xF0001FF0) -- CPU_ReadMem(16 bytes @ 0xF0001FE0)ROMTbl[0][1]: F0001000, CID: B105900D, PID: 0008E000 MTBDWT -- CPU_ReadMem(16 bytes @ 0xE00FFFF0) -- CPU_ReadMem(16 bytes @ 0xE00FFFE0)ROMTbl[0][2]: E00FF000, CID: B105100D, PID: 000BB4C0 ROM TableROMTbl[1] @ E00FF000 -- CPU_ReadMem(16 bytes @ 0xE00FF000) -- CPU_ReadMem(16 bytes @ 0xE000EFF0) -- CPU_ReadMem(16 bytes @ 0xE000EFE0)
ROMTbl[1][0]: E000E000, CID: B105E00D, PID: 000BB008 SCS -- CPU_ReadMem(16 bytes @ 0xE0001FF0) -- CPU_ReadMem(16 bytes @ 0xE0001FE0)ROMTbl[1][1]: E0001000, CID: B105E00D, PID: 000BB00A DWT -- CPU_ReadMem(16 bytes @ 0xE0002FF0) -- CPU_ReadMem(16 bytes @ 0xE0002FE0)ROMTbl[1][2]: E0002000, CID: B105E00D, PID: 000BB00B FPB >0x0D TIF> >0x21 TIF>  returns 0x0BC11477 (0183ms, 0333ms total)
T4080 000:334 JLINK_GetDLLVersion()  returns 62007 (0000ms, 0333ms total)
T4080 000:334 JLINK_CORE_GetFound()  returns 0x60000FF (0000ms, 0333ms total)
T4080 000:334 JLINK_GetDebugInfo(0x100 = JLINKARM_ROM_TABLE_ADDR_INDEX) -- Value=0xF0002000  returns 0x00 (0000ms, 0333ms total)
T4080 000:334 JLINK_GetDebugInfo(0x100 = JLINKARM_ROM_TABLE_ADDR_INDEX) -- Value=0xF0002000  returns 0x00 (0000ms, 0333ms total)
T4080 000:334 JLINK_GetDebugInfo(0x101 = JLINKARM_DEBUG_INFO_ETM_ADDR_INDEX) -- Value=0x00000000  returns 0x00 (0000ms, 0333ms total)
T4080 000:334 JLINK_ReadMemEx(0xE0041FF0, 0x0010 Bytes, ..., Flags = 0x02000004) -- CPU_ReadMem(16 bytes @ 0xE0041FF0) - Data: 00 00 00 00 00 00 00 00 00 00 00 00 00 00 00 00  returns 0x10 (0001ms, 0334ms total)
T4080 000:335 JLINK_GetDebugInfo(0x102 = JLINKARM_DEBUG_INFO_MTB_ADDR_INDEX) -- Value=0xF0000000  returns 0x00 (0000ms, 0334ms total)
T4080 000:335 JLINK_CORE_GetFound()  returns 0x60000FF (0000ms, 0334ms total)
T4080 000:335 JLINK_GetDebugInfo(0x103 = JLINKARM_DEBUG_INFO_TPIU_ADDR_INDEX) -- Value=0x00000000  returns 0x00 (0000ms, 0334ms total)
T4080 000:335 JLINK_ReadMemEx(0xE0040FF0, 0x0010 Bytes, ..., Flags = 0x02000004) -- CPU_ReadMem(16 bytes @ 0xE0040FF0) - Data: 00 00 00 00 00 00 00 00 00 00 00 00 00 00 00 00  returns 0x10 (0000ms, 0334ms total)
T4080 000:335 JLINK_GetDebugInfo(0x104 = JLINKARM_DEBUG_INFO_ITM_ADDR_INDEX) -- Value=0xE0000000  returns 0x00 (0000ms, 0334ms total)
T4080 000:335 JLINK_GetDebugInfo(0x105 = JLINKARM_DEBUG_INFO_DWT_ADDR_INDEX) -- Value=0xE0001000  returns 0x00 (0000ms, 0334ms total)
T4080 000:335 JLINK_GetDebugInfo(0x106 = JLINKARM_DEBUG_INFO_FPB_ADDR_INDEX) -- Value=0xE0002000  returns 0x00 (0000ms, 0334ms total)
T4080 000:335 JLINK_GetDebugInfo(0x107 = JLINKARM_DEBUG_INFO_NVIC_ADDR_INDEX) -- Value=0xE000E000  returns 0x00 (0000ms, 0334ms total)
T4080 000:335 JLINK_GetDebugInfo(0x10C = JLINKARM_DEBUG_INFO_DBG_ADDR_INDEX) -- Value=0xE000EDF0  returns 0x00 (0000ms, 0334ms total)
T4080 000:335 JLINK_ReadMemU32(0xE000ED00, 0x0001 Items, ...) -- CPU_ReadMem(4 bytes @ 0xE000ED00) - Data: 01 C6 0C 41  returns 0x01 (0002ms, 0336ms total)
T4080 000:337 JLINK_GetDebugInfo(0x10F = JLINKARM_DEBUG_INFO_HAS_CORTEX_M_SECURITY_EXT_INDEX) -- Value=0x00000000  returns 0x00 (0000ms, 0336ms total)
T4080 000:337 JLINK_SetResetType(JLINKARM_CM3_RESET_TYPE_NORMAL)  returns JLINKARM_CM3_RESET_TYPE_NORMAL (0000ms, 0336ms total)
T4080 000:337 JLINK_Reset() -- CPU is running -- CPU_WriteMem(4 bytes @ 0xE000EDF0) -- CPU is running -- CPU_WriteMem(4 bytes @ 0xE000EDFC)Reset: Halt core after reset via DEMCR.VC_CORERESET. >0x35 TIF>Reset: Reset device via AIRCR.SYSRESETREQ. -- CPU is running -- CPU_WriteMem(4 bytes @ 0xE000ED0C) >0x0D TIF> >0x28 TIF> -- CPU_ReadMem(4 bytes @ 0xE000EDF0) -- CPU_ReadMem(4 bytes @ 0xE000EDF0) -- CPU is running -- CPU_WriteMem(4 bytes @ 0xE000EDF0) -- CPU is running -- CPU_WriteMem(4 bytes @ 0xE000EDFC)
 -- CPU_ReadMem(4 bytes @ 0xE000EDF0) -- CPU_WriteMem(4 bytes @ 0xE0002000) -- CPU_ReadMem(4 bytes @ 0xE000EDFC) -- CPU_ReadMem(4 bytes @ 0xE0001000) -- CPU_WriteMem(4 bytes @ 0xE0001000) (0069ms, 0405ms total)
T4080 000:406 JLINK_ReadReg(R15 (PC))  returns 0x00000214 (0000ms, 0405ms total)
T4080 000:406 JLINK_ReadReg(XPSR)  returns 0x41000000 (0000ms, 0405ms total)
T4080 000:406 JLINK_Halt()  returns 0x00 (0000ms, 0405ms total)
T4080 000:406 JLINK_ReadMemU32(0xE000EDF0, 0x0001 Items, ...) -- CPU_ReadMem(4 bytes @ 0xE000EDF0) - Data: 03 00 03 00  returns 0x01 (0001ms, 0406ms total)
T4080 000:407 JLINK_WriteU32(0xE000EDF0, 0xA05F0003) -- CPU_WriteMem(4 bytes @ 0xE000EDF0)  returns 0x00 (0000ms, 0406ms total)
T4080 000:407 JLINK_WriteU32(0xE000EDFC, 0x01000000) -- CPU_WriteMem(4 bytes @ 0xE000EDFC)  returns 0x00 (0001ms, 0407ms total)
T4080 000:408 JLINK_GetHWStatus(...)  returns 0x00 (0000ms, 0407ms total)
T4080 000:408 JLINK_GetNumBPUnits(Type = 0xFFFFFF00)  returns 0x02 (0000ms, 0407ms total)
T4080 000:408 JLINK_GetNumBPUnits(Type = 0xF0)  returns 0x2000 (0000ms, 0407ms total)
T4080 000:408 JLINK_GetNumWPUnits()  returns 0x02 (0000ms, 0407ms total)
T4080 000:408 JLINK_GetSpeed()  returns 0x595 (0000ms, 0407ms total)
T4080 000:408 JLINK_ReadMemU32(0xE000E004, 0x0001 Items, ...) -- CPU_ReadMem(4 bytes @ 0xE000E004) - Data: 00 00 00 00  returns 0x01 (0001ms, 0408ms total)
T4080 000:409 JLINK_ReadReg(R15 (PC))  returns 0x00000214 (0000ms, 0408ms total)
T4080 000:409 JLINK_ReadReg(XPSR)  returns 0x41000000 (0000ms, 0408ms total)
T4080 000:423 JLINK_ReadMemU32(0xF000000C, 0x0001 Items, ...) -- CPU_ReadMem(4 bytes @ 0xF000000C) - Data: 00 80 FF 1F  returns 0x01 (0001ms, 0409ms total)
T4080 000:492 JLINK_SetResetType(JLINKARM_CM3_RESET_TYPE_NORMAL)  returns JLINKARM_CM3_RESET_TYPE_NORMAL (0000ms, 0409ms total)
T4080 000:492 JLINK_Reset() -- CPU_WriteMem(4 bytes @ 0xE000EDF0) -- CPU_WriteMem(4 bytes @ 0xE000EDFC)Reset: Halt core after reset via DEMCR.VC_CORERESET. >0x35 TIF>Reset: Reset device via AIRCR.SYSRESETREQ. -- CPU_WriteMem(4 bytes @ 0xE000ED0C) >0x0D TIF> >0x28 TIF> -- CPU_ReadMem(4 bytes @ 0xE000EDF0) -- CPU_ReadMem(4 bytes @ 0xE000EDF0) -- CPU_WriteMem(4 bytes @ 0xE000EDF0) -- CPU_WriteMem(4 bytes @ 0xE000EDFC) -- CPU_ReadMem(4 bytes @ 0xE000EDF0) -- CPU_WriteMem(4 bytes @ 0xE0002000)
 -- CPU_ReadMem(4 bytes @ 0xE000EDFC) -- CPU_ReadMem(4 bytes @ 0xE0001000) -- CPU_WriteMem(4 bytes @ 0xE0001000) (0072ms, 0481ms total)
T4080 000:564 JLINK_ReadReg(R15 (PC))  returns 0x00000214 (0000ms, 0481ms total)
T4080 000:564 JLINK_ReadReg(XPSR)  returns 0x41000000 (0000ms, 0481ms total)
T4080 000:565 JLINK_ReadMemEx(0x00000214, 0x003C Bytes, ..., Flags = 0x02000000) -- CPU_ReadMem(128 bytes @ 0x00000200) -- Updating C cache (128 bytes @ 0x00000200) -- Read from C cache (60 bytes @ 0x00000214) - Data: 72 B6 13 48 13 49 01 60 13 48 80 47 62 B6 13 48 ...  returns 0x3C (0002ms, 0483ms total)
T2ACC 001:418 JLINK_ReadMemEx(0x00000214, 0x0002 Bytes, ..., Flags = 0x02000000) -- Read from C cache (2 bytes @ 0x00000214) - Data: 72 B6  returns 0x02 (0000ms, 0483ms total)
T2ACC 001:418 JLINK_SetBPEx(Addr = 0x00000650, Type = 0xFFFFFFF2)  returns 0x00000001 (0000ms, 0483ms total)
T2ACC 001:418 JLINK_ReadMemEx(0xF0000000, 0x0008 Bytes, ..., Flags = 0x02000004) -- CPU_ReadMem(8 bytes @ 0xF0000000) - Data: FC BB 00 00 9F 00 00 00  returns 0x08 (0001ms, 0484ms total)
T2ACC 001:419 JLINK_Go() -- CPU_WriteMem(4 bytes @ 0xE0002000) -- CPU_ReadMem(4 bytes @ 0xE0001000) -- CPU_WriteMem(4 bytes @ 0xE0001000) -- CPU_WriteMem(4 bytes @ 0xE0002008) -- CPU_WriteMem(4 bytes @ 0xE000200C) -- CPU_WriteMem(4 bytes @ 0xE0001004) (0003ms, 0487ms total)
T2ACC 001:524 JLINK_IsHalted()  returns TRUE (0005ms, 0493ms total)
T2ACC 001:529 JLINK_Halt()  returns 0x00 (0000ms, 0488ms total)
T2ACC 001:529 JLINK_IsHalted()  returns TRUE (0000ms, 0488ms total)
T2ACC 001:529 JLINK_IsHalted()  returns TRUE (0000ms, 0488ms total)
T2ACC 001:529 JLINK_IsHalted()  returns TRUE (0000ms, 0488ms total)
T2ACC 001:529 JLINK_ReadReg(R15 (PC))  returns 0x00000650 (0000ms, 0488ms total)
T2ACC 001:529 JLINK_ReadReg(XPSR)  returns 0x01000000 (0000ms, 0488ms total)
T2ACC 001:529 JLINK_ClrBPEx(BPHandle = 0x00000001)  returns 0x00 (0000ms, 0488ms total)
T2ACC 001:529 JLINK_ReadMemU32(0xE000ED30, 0x0001 Items, ...) -- CPU_ReadMem(4 bytes @ 0xE000ED30) - Data: 02 00 00 00  returns 0x01 (0000ms, 0488ms total)
T2ACC 001:529 JLINK_ReadMemU32(0xE0001028, 0x0001 Items, ...) -- CPU_ReadMem(4 bytes @ 0xE0001028) - Data: 00 00 00 00  returns 0x01 (0001ms, 0489ms total)
T2ACC 001:530 JLINK_ReadMemU32(0xE0001038, 0x0001 Items, ...) -- CPU_ReadMem(4 bytes @ 0xE0001038) - Data: 00 00 00 00  returns 0x01 (0000ms, 0489ms total)
T2ACC 001:530 JLINK_ReadReg(R0)  returns 0x1FFF91C0 (0000ms, 0489ms total)
T2ACC 001:530 JLINK_ReadReg(R1)  returns 0x1FFF91C0 (0000ms, 0489ms total)
T2ACC 001:530 JLINK_ReadReg(R2)  returns 0x1FFF91C0 (0000ms, 0489ms total)
T2ACC 001:530 JLINK_ReadReg(R3)  returns 0x1FFF91C0 (0000ms, 0489ms total)
T2ACC 001:530 JLINK_ReadReg(R4)  returns 0x00002094 (0000ms, 0489ms total)
T2ACC 001:530 JLINK_ReadReg(R5)  returns 0x1FFF9160 (0000ms, 0489ms total)
T2ACC 001:530 JLINK_ReadReg(R6)  returns 0x00000000 (0000ms, 0489ms total)
T2ACC 001:530 JLINK_ReadReg(R7)  returns 0x00000000 (0000ms, 0489ms total)
T2ACC 001:530 JLINK_ReadReg(R8)  returns 0x00000000 (0000ms, 0489ms total)
T2ACC 001:530 JLINK_ReadReg(R9)  returns 0x20000530 (0000ms, 0489ms total)
T2ACC 001:530 JLINK_ReadReg(R10)  returns 0x00002094 (0001ms, 0490ms total)
T2ACC 001:531 JLINK_ReadReg(R11)  returns 0x00002094 (0000ms, 0490ms total)
T2ACC 001:531 JLINK_ReadReg(R12)  returns 0x00000000 (0000ms, 0490ms total)
T2ACC 001:531 JLINK_ReadReg(R13 (SP))  returns 0x1FFF95C0 (0000ms, 0490ms total)
T2ACC 001:531 JLINK_ReadReg(R14)  returns 0x00000153 (0000ms, 0490ms total)
T2ACC 001:531 JLINK_ReadReg(R15 (PC))  returns 0x00000650 (0000ms, 0490ms total)
T2ACC 001:531 JLINK_ReadReg(XPSR)  returns 0x01000000 (0000ms, 0490ms total)
T2ACC 001:531 JLINK_ReadReg(MSP)  returns 0x1FFF95C0 (0000ms, 0490ms total)
T2ACC 001:531 JLINK_ReadReg(PSP)  returns 0x20001000 (0000ms, 0490ms total)
T2ACC 001:531 JLINK_ReadReg(CFBP)  returns 0x00000000 (0000ms, 0490ms total)
T4080 004:994 JLINK_SetResetType(JLINKARM_CM3_RESET_TYPE_NORMAL)  returns JLINKARM_CM3_RESET_TYPE_NORMAL (0000ms, 0490ms total)
T4080 004:994 JLINK_Reset() -- CPU_WriteMem(4 bytes @ 0xE000EDF0) -- CPU_WriteMem(4 bytes @ 0xE000EDFC)Reset: Halt core after reset via DEMCR.VC_CORERESET. >0x35 TIF>Reset: Reset device via AIRCR.SYSRESETREQ. -- CPU_WriteMem(4 bytes @ 0xE000ED0C) >0x0D TIF> >0x28 TIF> -- CPU_ReadMem(4 bytes @ 0xE000EDF0) -- CPU_ReadMem(4 bytes @ 0xE000EDF0) -- CPU_WriteMem(4 bytes @ 0xE000EDF0) -- CPU_WriteMem(4 bytes @ 0xE000EDFC) -- CPU_ReadMem(4 bytes @ 0xE000EDF0) -- CPU_WriteMem(4 bytes @ 0xE0002000)
 -- CPU_ReadMem(4 bytes @ 0xE000EDFC) -- CPU_ReadMem(4 bytes @ 0xE0001000) -- CPU_WriteMem(4 bytes @ 0xE0001000) (0073ms, 0563ms total)
T4080 005:067 JLINK_ReadReg(R15 (PC))  returns 0x00000214 (0000ms, 0563ms total)
T4080 005:067 JLINK_ReadReg(XPSR)  returns 0x01000000 (0000ms, 0563ms total)
T4080 005:067 JLINK_ReadReg(R0)  returns 0x1FFF91C0 (0000ms, 0563ms total)
T4080 005:067 JLINK_ReadReg(R1)  returns 0x1FFF91C0 (0000ms, 0563ms total)
T4080 005:067 JLINK_ReadReg(R2)  returns 0x1FFF91C0 (0000ms, 0563ms total)
T4080 005:067 JLINK_ReadReg(R3)  returns 0x1FFF91C0 (0000ms, 0563ms total)
T4080 005:067 JLINK_ReadReg(R4)  returns 0x00002094 (0000ms, 0563ms total)
T4080 005:067 JLINK_ReadReg(R5)  returns 0x1FFF9160 (0000ms, 0563ms total)
T4080 005:067 JLINK_ReadReg(R6)  returns 0x00000000 (0000ms, 0563ms total)
T4080 005:067 JLINK_ReadReg(R7)  returns 0x00000000 (0000ms, 0563ms total)
T4080 005:067 JLINK_ReadReg(R8)  returns 0x00000000 (0000ms, 0563ms total)
T4080 005:067 JLINK_ReadReg(R9)  returns 0x20000530 (0000ms, 0563ms total)
T4080 005:067 JLINK_ReadReg(R10)  returns 0x00002094 (0000ms, 0563ms total)
T4080 005:067 JLINK_ReadReg(R11)  returns 0x00002094 (0000ms, 0563ms total)
T4080 005:067 JLINK_ReadReg(R12)  returns 0x00000000 (0000ms, 0563ms total)
T4080 005:067 JLINK_ReadReg(R13 (SP))  returns 0x1FFF95C0 (0000ms, 0563ms total)
T4080 005:067 JLINK_ReadReg(R14)  returns 0x00000153 (0000ms, 0563ms total)
T4080 005:067 JLINK_ReadReg(R15 (PC))  returns 0x00000214 (0000ms, 0563ms total)
T4080 005:067 JLINK_ReadReg(XPSR)  returns 0x01000000 (0000ms, 0563ms total)
T4080 005:067 JLINK_ReadReg(MSP)  returns 0x1FFF95C0 (0000ms, 0563ms total)
T4080 005:067 JLINK_ReadReg(PSP)  returns 0x20001000 (0000ms, 0563ms total)
T4080 005:067 JLINK_ReadReg(CFBP)  returns 0x00000000 (0000ms, 0563ms total)
T4080 005:070 JLINK_ReadMemEx(0x00000214, 0x003C Bytes, ..., Flags = 0x02000000) -- CPU_ReadMem(128 bytes @ 0x00000200) -- Updating C cache (128 bytes @ 0x00000200) -- Read from C cache (60 bytes @ 0x00000214) - Data: 72 B6 13 48 13 49 01 60 13 48 80 47 62 B6 13 48 ...  returns 0x3C (0002ms, 0565ms total)
T2ACC 014:653 JLINK_ReadMemEx(0x00000214, 0x0002 Bytes, ..., Flags = 0x02000000) -- Read from C cache (2 bytes @ 0x00000214) - Data: 72 B6  returns 0x02 (0000ms, 0565ms total)
T2ACC 014:653 JLINK_ReadMemEx(0xF0000000, 0x0008 Bytes, ..., Flags = 0x02000004) -- CPU_ReadMem(8 bytes @ 0xF0000000) - Data: FC BB 00 00 9F 00 00 00  returns 0x08 (0001ms, 0566ms total)
T2ACC 014:654 JLINK_Step() -- Read from C cache (2 bytes @ 0x00000214) -- CPU_ReadMem(4 bytes @ 0xE000ED18) -- CPU_WriteMem(4 bytes @ 0xE000ED18) -- CPU_ReadMem(4 bytes @ 0xE000ED18) -- CPU_WriteMem(4 bytes @ 0xE000ED18) -- Not simulated -- CPU_WriteMem(4 bytes @ 0xE0002008) -- CPU_WriteMem(4 bytes @ 0xE000200C) -- CPU_WriteMem(4 bytes @ 0xE0001004)  returns 0x00 (0010ms, 0576ms total)
T2ACC 014:664 JLINK_ReadReg(R15 (PC))  returns 0x00000216 (0000ms, 0576ms total)
T2ACC 014:664 JLINK_ReadReg(XPSR)  returns 0x01000000 (0000ms, 0576ms total)
T2ACC 014:664 JLINK_ReadReg(R0)  returns 0x1FFF91C0 (0000ms, 0576ms total)
T2ACC 014:664 JLINK_ReadReg(R1)  returns 0x1FFF91C0 (0000ms, 0576ms total)
T2ACC 014:664 JLINK_ReadReg(R2)  returns 0x1FFF91C0 (0000ms, 0576ms total)
T2ACC 014:664 JLINK_ReadReg(R3)  returns 0x1FFF91C0 (0000ms, 0576ms total)
T2ACC 014:664 JLINK_ReadReg(R4)  returns 0x00002094 (0000ms, 0576ms total)
T2ACC 014:664 JLINK_ReadReg(R5)  returns 0x1FFF9160 (0000ms, 0576ms total)
T2ACC 014:664 JLINK_ReadReg(R6)  returns 0x00000000 (0000ms, 0576ms total)
T2ACC 014:664 JLINK_ReadReg(R7)  returns 0x00000000 (0000ms, 0576ms total)
T2ACC 014:664 JLINK_ReadReg(R8)  returns 0x00000000 (0000ms, 0576ms total)
T2ACC 014:664 JLINK_ReadReg(R9)  returns 0x20000530 (0000ms, 0576ms total)
T2ACC 014:664 JLINK_ReadReg(R10)  returns 0x00002094 (0000ms, 0576ms total)
T2ACC 014:664 JLINK_ReadReg(R11)  returns 0x00002094 (0000ms, 0576ms total)
T2ACC 014:664 JLINK_ReadReg(R12)  returns 0x00000000 (0000ms, 0576ms total)
T2ACC 014:664 JLINK_ReadReg(R13 (SP))  returns 0x1FFF95C0 (0000ms, 0576ms total)
T2ACC 014:664 JLINK_ReadReg(R14)  returns 0x00000153 (0000ms, 0576ms total)
T2ACC 014:664 JLINK_ReadReg(R15 (PC))  returns 0x00000216 (0000ms, 0576ms total)
T2ACC 014:664 JLINK_ReadReg(XPSR)  returns 0x01000000 (0000ms, 0576ms total)
T2ACC 014:664 JLINK_ReadReg(MSP)  returns 0x1FFF95C0 (0000ms, 0576ms total)
T2ACC 014:664 JLINK_ReadReg(PSP)  returns 0x20001000 (0000ms, 0576ms total)
T2ACC 014:664 JLINK_ReadReg(CFBP)  returns 0x00000001 (0000ms, 0576ms total)
T4080 014:672 JLINK_ReadMemEx(0x00000214, 0x003C Bytes, ..., Flags = 0x02000000) -- CPU_ReadMem(128 bytes @ 0x00000200) -- Updating C cache (128 bytes @ 0x00000200) -- Read from C cache (60 bytes @ 0x00000214) - Data: 72 B6 13 48 13 49 01 60 13 48 80 47 62 B6 13 48 ...  returns 0x3C (0002ms, 0578ms total)
T2ACC 030:164 JLINK_ReadMemEx(0x00000216, 0x0002 Bytes, ..., Flags = 0x02000000) -- Read from C cache (2 bytes @ 0x00000216) - Data: 13 48  returns 0x02 (0000ms, 0578ms total)
T2ACC 030:164 JLINK_ReadMemEx(0xF0000000, 0x0008 Bytes, ..., Flags = 0x02000004) -- CPU_ReadMem(8 bytes @ 0xF0000000) - Data: FC BB 00 00 9F 00 00 00  returns 0x08 (0001ms, 0579ms total)
T2ACC 030:165 JLINK_Step() -- Read from C cache (2 bytes @ 0x00000216) -- CPU_ReadMem(4 bytes @ 0xE0001004) -- Read from C cache (4 bytes @ 0x00000264) -- Simulated  returns 0x00 (0001ms, 0580ms total)
T2ACC 030:166 JLINK_ReadReg(R15 (PC))  returns 0x00000218 (0000ms, 0580ms total)
T2ACC 030:166 JLINK_ReadReg(XPSR)  returns 0x01000000 (0000ms, 0580ms total)
T2ACC 030:166 JLINK_ReadReg(R0)  returns 0xE000ED08 (0000ms, 0580ms total)
T2ACC 030:166 JLINK_ReadReg(R1)  returns 0x1FFF91C0 (0000ms, 0580ms total)
T2ACC 030:166 JLINK_ReadReg(R2)  returns 0x1FFF91C0 (0000ms, 0580ms total)
T2ACC 030:166 JLINK_ReadReg(R3)  returns 0x1FFF91C0 (0000ms, 0580ms total)
T2ACC 030:166 JLINK_ReadReg(R4)  returns 0x00002094 (0000ms, 0580ms total)
T2ACC 030:166 JLINK_ReadReg(R5)  returns 0x1FFF9160 (0000ms, 0580ms total)
T2ACC 030:166 JLINK_ReadReg(R6)  returns 0x00000000 (0000ms, 0580ms total)
T2ACC 030:166 JLINK_ReadReg(R7)  returns 0x00000000 (0000ms, 0580ms total)
T2ACC 030:166 JLINK_ReadReg(R8)  returns 0x00000000 (0000ms, 0580ms total)
T2ACC 030:166 JLINK_ReadReg(R9)  returns 0x20000530 (0000ms, 0580ms total)
T2ACC 030:166 JLINK_ReadReg(R10)  returns 0x00002094 (0000ms, 0580ms total)
T2ACC 030:166 JLINK_ReadReg(R11)  returns 0x00002094 (0000ms, 0580ms total)
T2ACC 030:166 JLINK_ReadReg(R12)  returns 0x00000000 (0000ms, 0580ms total)
T2ACC 030:166 JLINK_ReadReg(R13 (SP))  returns 0x1FFF95C0 (0000ms, 0580ms total)
T2ACC 030:166 JLINK_ReadReg(R14)  returns 0x00000153 (0000ms, 0580ms total)
T2ACC 030:166 JLINK_ReadReg(R15 (PC))  returns 0x00000218 (0000ms, 0580ms total)
T2ACC 030:166 JLINK_ReadReg(XPSR)  returns 0x01000000 (0000ms, 0580ms total)
T2ACC 030:166 JLINK_ReadReg(MSP)  returns 0x1FFF95C0 (0000ms, 0580ms total)
T2ACC 030:166 JLINK_ReadReg(PSP)  returns 0x20001000 (0000ms, 0580ms total)
T2ACC 030:166 JLINK_ReadReg(CFBP)  returns 0x00000001 (0000ms, 0580ms total)
T4080 030:170 JLINK_ReadMemEx(0x00000218, 0x003C Bytes, ..., Flags = 0x02000000) -- Read from C cache (60 bytes @ 0x00000218) - Data: 13 49 01 60 13 48 80 47 62 B6 13 48 00 47 FE E7 ...  returns 0x3C (0000ms, 0580ms total)
T2ACC 038:014 JLINK_ReadMemEx(0x00000218, 0x0002 Bytes, ..., Flags = 0x02000000) -- Read from C cache (2 bytes @ 0x00000218) - Data: 13 49  returns 0x02 (0000ms, 0580ms total)
T2ACC 038:014 JLINK_ReadMemEx(0xF0000000, 0x0008 Bytes, ..., Flags = 0x02000004) -- CPU_ReadMem(8 bytes @ 0xF0000000) - Data: FC BB 00 00 9F 00 00 00  returns 0x08 (0000ms, 0580ms total)
T2ACC 038:014 JLINK_Step() -- Read from C cache (2 bytes @ 0x00000218) -- Read from C cache (4 bytes @ 0x00000268) -- Simulated  returns 0x00 (0000ms, 0580ms total)
T2ACC 038:014 JLINK_ReadReg(R15 (PC))  returns 0x0000021A (0000ms, 0580ms total)
T2ACC 038:014 JLINK_ReadReg(XPSR)  returns 0x01000000 (0000ms, 0580ms total)
T2ACC 038:014 JLINK_ReadReg(R0)  returns 0xE000ED08 (0000ms, 0580ms total)
T2ACC 038:014 JLINK_ReadReg(R1)  returns 0x00000000 (0000ms, 0580ms total)
T2ACC 038:014 JLINK_ReadReg(R2)  returns 0x1FFF91C0 (0000ms, 0580ms total)
T2ACC 038:014 JLINK_ReadReg(R3)  returns 0x1FFF91C0 (0000ms, 0580ms total)
T2ACC 038:014 JLINK_ReadReg(R4)  returns 0x00002094 (0000ms, 0580ms total)
T2ACC 038:014 JLINK_ReadReg(R5)  returns 0x1FFF9160 (0000ms, 0580ms total)
T2ACC 038:014 JLINK_ReadReg(R6)  returns 0x00000000 (0000ms, 0580ms total)
T2ACC 038:014 JLINK_ReadReg(R7)  returns 0x00000000 (0000ms, 0580ms total)
T2ACC 038:014 JLINK_ReadReg(R8)  returns 0x00000000 (0000ms, 0580ms total)
T2ACC 038:014 JLINK_ReadReg(R9)  returns 0x20000530 (0000ms, 0580ms total)
T2ACC 038:014 JLINK_ReadReg(R10)  returns 0x00002094 (0000ms, 0580ms total)
T2ACC 038:014 JLINK_ReadReg(R11)  returns 0x00002094 (0000ms, 0580ms total)
T2ACC 038:014 JLINK_ReadReg(R12)  returns 0x00000000 (0000ms, 0580ms total)
T2ACC 038:014 JLINK_ReadReg(R13 (SP))  returns 0x1FFF95C0 (0000ms, 0580ms total)
T2ACC 038:014 JLINK_ReadReg(R14)  returns 0x00000153 (0000ms, 0580ms total)
T2ACC 038:014 JLINK_ReadReg(R15 (PC))  returns 0x0000021A (0000ms, 0580ms total)
T2ACC 038:014 JLINK_ReadReg(XPSR)  returns 0x01000000 (0000ms, 0580ms total)
T2ACC 038:014 JLINK_ReadReg(MSP)  returns 0x1FFF95C0 (0000ms, 0580ms total)
T2ACC 038:014 JLINK_ReadReg(PSP)  returns 0x20001000 (0000ms, 0580ms total)
T2ACC 038:014 JLINK_ReadReg(CFBP)  returns 0x00000001 (0000ms, 0580ms total)
T4080 038:019 JLINK_ReadMemEx(0x00000218, 0x003C Bytes, ..., Flags = 0x02000000) -- Read from C cache (60 bytes @ 0x00000218) - Data: 13 49 01 60 13 48 80 47 62 B6 13 48 00 47 FE E7 ...  returns 0x3C (0000ms, 0580ms total)
T2ACC 040:244 JLINK_ReadMemEx(0x0000021A, 0x0002 Bytes, ..., Flags = 0x02000000) -- Read from C cache (2 bytes @ 0x0000021A) - Data: 01 60  returns 0x02 (0000ms, 0580ms total)
T2ACC 040:244 JLINK_ReadMemEx(0xF0000000, 0x0008 Bytes, ..., Flags = 0x02000004) -- CPU_ReadMem(8 bytes @ 0xF0000000) - Data: FC BB 00 00 9F 00 00 00  returns 0x08 (0001ms, 0581ms total)
T2ACC 040:245 JLINK_Step() -- Read from C cache (2 bytes @ 0x0000021A) -- Not simulated -- CPU_WriteMem(4 bytes @ 0xE0001004)  returns 0x00 (0008ms, 0589ms total)
T2ACC 040:253 JLINK_ReadReg(R15 (PC))  returns 0x0000021C (0000ms, 0589ms total)
T2ACC 040:253 JLINK_ReadReg(XPSR)  returns 0x01000000 (0000ms, 0589ms total)
T2ACC 040:253 JLINK_ReadReg(R0)  returns 0xE000ED08 (0000ms, 0589ms total)
T2ACC 040:253 JLINK_ReadReg(R1)  returns 0x00000000 (0000ms, 0589ms total)
T2ACC 040:253 JLINK_ReadReg(R2)  returns 0x1FFF91C0 (0000ms, 0589ms total)
T2ACC 040:253 JLINK_ReadReg(R3)  returns 0x1FFF91C0 (0000ms, 0589ms total)
T2ACC 040:253 JLINK_ReadReg(R4)  returns 0x00002094 (0000ms, 0589ms total)
T2ACC 040:253 JLINK_ReadReg(R5)  returns 0x1FFF9160 (0000ms, 0589ms total)
T2ACC 040:253 JLINK_ReadReg(R6)  returns 0x00000000 (0000ms, 0589ms total)
T2ACC 040:253 JLINK_ReadReg(R7)  returns 0x00000000 (0000ms, 0589ms total)
T2ACC 040:253 JLINK_ReadReg(R8)  returns 0x00000000 (0000ms, 0589ms total)
T2ACC 040:253 JLINK_ReadReg(R9)  returns 0x20000530 (0000ms, 0589ms total)
T2ACC 040:253 JLINK_ReadReg(R10)  returns 0x00002094 (0000ms, 0589ms total)
T2ACC 040:253 JLINK_ReadReg(R11)  returns 0x00002094 (0000ms, 0589ms total)
T2ACC 040:253 JLINK_ReadReg(R12)  returns 0x00000000 (0000ms, 0589ms total)
T2ACC 040:253 JLINK_ReadReg(R13 (SP))  returns 0x1FFF95C0 (0000ms, 0589ms total)
T2ACC 040:253 JLINK_ReadReg(R14)  returns 0x00000153 (0000ms, 0589ms total)
T2ACC 040:253 JLINK_ReadReg(R15 (PC))  returns 0x0000021C (0000ms, 0589ms total)
T2ACC 040:253 JLINK_ReadReg(XPSR)  returns 0x01000000 (0000ms, 0589ms total)
T2ACC 040:253 JLINK_ReadReg(MSP)  returns 0x1FFF95C0 (0000ms, 0589ms total)
T2ACC 040:253 JLINK_ReadReg(PSP)  returns 0x20001000 (0000ms, 0589ms total)
T2ACC 040:253 JLINK_ReadReg(CFBP)  returns 0x00000001 (0000ms, 0589ms total)
T4080 040:256 JLINK_ReadMemEx(0x0000021C, 0x003C Bytes, ..., Flags = 0x02000000) -- CPU_ReadMem(128 bytes @ 0x00000200) -- Updating C cache (128 bytes @ 0x00000200) -- Read from C cache (60 bytes @ 0x0000021C) - Data: 13 48 80 47 62 B6 13 48 00 47 FE E7 FE E7 FE E7 ...  returns 0x3C (0002ms, 0591ms total)
T2ACC 044:821 JLINK_ReadMemEx(0x0000021C, 0x0002 Bytes, ..., Flags = 0x02000000) -- Read from C cache (2 bytes @ 0x0000021C) - Data: 13 48  returns 0x02 (0000ms, 0591ms total)
T2ACC 044:821 JLINK_ReadMemEx(0xF0000000, 0x0008 Bytes, ..., Flags = 0x02000004) -- CPU_ReadMem(8 bytes @ 0xF0000000) - Data: FC BB 00 00 9F 00 00 00  returns 0x08 (0000ms, 0591ms total)
T2ACC 044:821 JLINK_Step() -- Read from C cache (2 bytes @ 0x0000021C) -- CPU_ReadMem(4 bytes @ 0xE0001004) -- Read from C cache (4 bytes @ 0x0000026C) -- Simulated  returns 0x00 (0001ms, 0592ms total)
T2ACC 044:822 JLINK_ReadReg(R15 (PC))  returns 0x0000021E (0000ms, 0592ms total)
T2ACC 044:822 JLINK_ReadReg(XPSR)  returns 0x01000000 (0000ms, 0592ms total)
T2ACC 044:822 JLINK_ReadReg(R0)  returns 0x000003E5 (0000ms, 0592ms total)
T2ACC 044:822 JLINK_ReadReg(R1)  returns 0x00000000 (0000ms, 0592ms total)
T2ACC 044:822 JLINK_ReadReg(R2)  returns 0x1FFF91C0 (0000ms, 0592ms total)
T2ACC 044:822 JLINK_ReadReg(R3)  returns 0x1FFF91C0 (0000ms, 0592ms total)
T2ACC 044:822 JLINK_ReadReg(R4)  returns 0x00002094 (0000ms, 0592ms total)
T2ACC 044:822 JLINK_ReadReg(R5)  returns 0x1FFF9160 (0000ms, 0592ms total)
T2ACC 044:822 JLINK_ReadReg(R6)  returns 0x00000000 (0000ms, 0592ms total)
T2ACC 044:822 JLINK_ReadReg(R7)  returns 0x00000000 (0000ms, 0592ms total)
T2ACC 044:822 JLINK_ReadReg(R8)  returns 0x00000000 (0000ms, 0592ms total)
T2ACC 044:822 JLINK_ReadReg(R9)  returns 0x20000530 (0000ms, 0592ms total)
T2ACC 044:822 JLINK_ReadReg(R10)  returns 0x00002094 (0000ms, 0592ms total)
T2ACC 044:822 JLINK_ReadReg(R11)  returns 0x00002094 (0000ms, 0592ms total)
T2ACC 044:822 JLINK_ReadReg(R12)  returns 0x00000000 (0001ms, 0593ms total)
T2ACC 044:823 JLINK_ReadReg(R13 (SP))  returns 0x1FFF95C0 (0000ms, 0593ms total)
T2ACC 044:823 JLINK_ReadReg(R14)  returns 0x00000153 (0000ms, 0593ms total)
T2ACC 044:823 JLINK_ReadReg(R15 (PC))  returns 0x0000021E (0000ms, 0593ms total)
T2ACC 044:823 JLINK_ReadReg(XPSR)  returns 0x01000000 (0000ms, 0593ms total)
T2ACC 044:823 JLINK_ReadReg(MSP)  returns 0x1FFF95C0 (0000ms, 0593ms total)
T2ACC 044:823 JLINK_ReadReg(PSP)  returns 0x20001000 (0000ms, 0593ms total)
T2ACC 044:823 JLINK_ReadReg(CFBP)  returns 0x00000001 (0000ms, 0593ms total)
T4080 044:826 JLINK_ReadMemEx(0x0000021C, 0x003C Bytes, ..., Flags = 0x02000000) -- Read from C cache (60 bytes @ 0x0000021C) - Data: 13 48 80 47 62 B6 13 48 00 47 FE E7 FE E7 FE E7 ...  returns 0x3C (0000ms, 0593ms total)
T2ACC 078:668 JLINK_ReadMemEx(0x0000021E, 0x0002 Bytes, ..., Flags = 0x02000000) -- Read from C cache (2 bytes @ 0x0000021E) - Data: 80 47  returns 0x02 (0001ms, 0594ms total)
T2ACC 078:669 JLINK_ReadMemEx(0xF0000000, 0x0008 Bytes, ..., Flags = 0x02000004) -- CPU_ReadMem(8 bytes @ 0xF0000000) - Data: FC BB 00 00 9F 00 00 00  returns 0x08 (0000ms, 0594ms total)
T2ACC 078:669 JLINK_Step() -- Read from C cache (2 bytes @ 0x0000021E) -- Simulated  returns 0x00 (0001ms, 0595ms total)
T2ACC 078:670 JLINK_ReadReg(R15 (PC))  returns 0x000003E4 (0000ms, 0595ms total)
T2ACC 078:670 JLINK_ReadReg(XPSR)  returns 0x01000000 (0000ms, 0595ms total)
T2ACC 078:670 JLINK_ReadReg(R0)  returns 0x000003E5 (0000ms, 0595ms total)
T2ACC 078:670 JLINK_ReadReg(R1)  returns 0x00000000 (0000ms, 0595ms total)
T2ACC 078:670 JLINK_ReadReg(R2)  returns 0x1FFF91C0 (0000ms, 0595ms total)
T2ACC 078:670 JLINK_ReadReg(R3)  returns 0x1FFF91C0 (0000ms, 0595ms total)
T2ACC 078:670 JLINK_ReadReg(R4)  returns 0x00002094 (0000ms, 0595ms total)
T2ACC 078:670 JLINK_ReadReg(R5)  returns 0x1FFF9160 (0000ms, 0595ms total)
T2ACC 078:670 JLINK_ReadReg(R6)  returns 0x00000000 (0000ms, 0595ms total)
T2ACC 078:670 JLINK_ReadReg(R7)  returns 0x00000000 (0000ms, 0595ms total)
T2ACC 078:670 JLINK_ReadReg(R8)  returns 0x00000000 (0000ms, 0595ms total)
T2ACC 078:670 JLINK_ReadReg(R9)  returns 0x20000530 (0000ms, 0595ms total)
T2ACC 078:670 JLINK_ReadReg(R10)  returns 0x00002094 (0000ms, 0595ms total)
T2ACC 078:670 JLINK_ReadReg(R11)  returns 0x00002094 (0000ms, 0595ms total)
T2ACC 078:670 JLINK_ReadReg(R12)  returns 0x00000000 (0000ms, 0595ms total)
T2ACC 078:670 JLINK_ReadReg(R13 (SP))  returns 0x1FFF95C0 (0000ms, 0595ms total)
T2ACC 078:670 JLINK_ReadReg(R14)  returns 0x00000221 (0000ms, 0595ms total)
T2ACC 078:670 JLINK_ReadReg(R15 (PC))  returns 0x000003E4 (0000ms, 0595ms total)
T2ACC 078:670 JLINK_ReadReg(XPSR)  returns 0x01000000 (0000ms, 0595ms total)
T2ACC 078:670 JLINK_ReadReg(MSP)  returns 0x1FFF95C0 (0000ms, 0595ms total)
T2ACC 078:670 JLINK_ReadReg(PSP)  returns 0x20001000 (0000ms, 0595ms total)
T2ACC 078:670 JLINK_ReadReg(CFBP)  returns 0x00000001 (0000ms, 0595ms total)
T4080 078:677 JLINK_ReadMemEx(0x000003E4, 0x001C Bytes, ..., Flags = 0x02000000) -- CPU_ReadMem(64 bytes @ 0x000003C0) -- Updating C cache (64 bytes @ 0x000003C0) -- Read from C cache (28 bytes @ 0x000003E4) - Data: 00 20 01 49 08 60 70 47 00 81 04 40 00 21 01 61 ...  returns 0x1C (0001ms, 0596ms total)
T4080 078:678 JLINK_ReadMemEx(0x00000400, 0x0020 Bytes, ..., Flags = 0x02000000) -- CPU_ReadMem(64 bytes @ 0x00000400) -- Updating C cache (64 bytes @ 0x00000400) -- Read from C cache (32 bytes @ 0x00000400) - Data: FF FF FF FF FF FF FF FF FF FF FF FF FE FF FF FF ...  returns 0x20 (0001ms, 0597ms total)
T2ACC 090:254 JLINK_ReadMemEx(0x000003E4, 0x0002 Bytes, ..., Flags = 0x02000000) -- Read from C cache (2 bytes @ 0x000003E4) - Data: 00 20  returns 0x02 (0000ms, 0597ms total)
T2ACC 090:254 JLINK_ReadMemEx(0xF0000000, 0x0008 Bytes, ..., Flags = 0x02000004) -- CPU_ReadMem(8 bytes @ 0xF0000000) - Data: FC BB 00 00 9F 00 00 00  returns 0x08 (0001ms, 0598ms total)
T2ACC 090:255 JLINK_Step() -- Read from C cache (2 bytes @ 0x000003E4) -- Simulated  returns 0x00 (0000ms, 0598ms total)
T2ACC 090:255 JLINK_ReadReg(R15 (PC))  returns 0x000003E6 (0000ms, 0598ms total)
T2ACC 090:255 JLINK_ReadReg(XPSR)  returns 0x41000000 (0000ms, 0598ms total)
T2ACC 090:255 JLINK_ReadMemEx(0xF0000000, 0x0008 Bytes, ..., Flags = 0x02000004) -- CPU_ReadMem(8 bytes @ 0xF0000000) - Data: FC BB 00 00 9F 00 00 00  returns 0x08 (0001ms, 0599ms total)
T2ACC 090:256 JLINK_Step() -- Read from C cache (2 bytes @ 0x000003E6) -- Read from C cache (4 bytes @ 0x000003EC) -- Simulated  returns 0x00 (0000ms, 0599ms total)
T2ACC 090:256 JLINK_ReadReg(R15 (PC))  returns 0x000003E8 (0000ms, 0599ms total)
T2ACC 090:256 JLINK_ReadReg(XPSR)  returns 0x41000000 (0000ms, 0599ms total)
T2ACC 090:256 JLINK_ReadMemEx(0x000003E8, 0x0018 Bytes, ..., Flags = 0x02000000) -- Read from C cache (24 bytes @ 0x000003E8) - Data: 08 60 70 47 00 81 04 40 00 21 01 61 70 47 00 00 ...  returns 0x18 (0000ms, 0599ms total)
T2ACC 090:256 JLINK_ReadMemEx(0x00000400, 0x0024 Bytes, ..., Flags = 0x02000000) -- Read from C cache (36 bytes @ 0x00000400) - Data: FF FF FF FF FF FF FF FF FF FF FF FF FE FF FF FF ...  returns 0x24 (0000ms, 0599ms total)
T2ACC 090:256 JLINK_ReadMemEx(0x000003E8, 0x0002 Bytes, ..., Flags = 0x02000000) -- Read from C cache (2 bytes @ 0x000003E8) - Data: 08 60  returns 0x02 (0000ms, 0599ms total)
T2ACC 090:256 JLINK_ReadMemEx(0x000003EA, 0x0002 Bytes, ..., Flags = 0x02000000) -- Read from C cache (2 bytes @ 0x000003EA) - Data: 70 47  returns 0x02 (0000ms, 0599ms total)
T2ACC 090:256 JLINK_ReadMemEx(0xF0000000, 0x0008 Bytes, ..., Flags = 0x02000004) -- CPU_ReadMem(8 bytes @ 0xF0000000) - Data: FC BB 00 00 9F 00 00 00  returns 0x08 (0001ms, 0600ms total)
T2ACC 090:257 JLINK_Step() -- Read from C cache (2 bytes @ 0x000003E8) -- Not simulated -- CPU_WriteMem(4 bytes @ 0xE0001004)  returns 0x00 (0008ms, 0608ms total)
T2ACC 090:265 JLINK_ReadReg(R15 (PC))  returns 0x000003EA (0000ms, 0608ms total)
T2ACC 090:265 JLINK_ReadReg(XPSR)  returns 0x41000000 (0000ms, 0608ms total)
T2ACC 090:265 JLINK_ReadReg(R0)  returns 0x00000000 (0000ms, 0608ms total)
T2ACC 090:265 JLINK_ReadReg(R1)  returns 0x40048100 (0000ms, 0608ms total)
T2ACC 090:265 JLINK_ReadReg(R2)  returns 0x1FFF91C0 (0000ms, 0608ms total)
T2ACC 090:265 JLINK_ReadReg(R3)  returns 0x1FFF91C0 (0000ms, 0608ms total)
T2ACC 090:265 JLINK_ReadReg(R4)  returns 0x00002094 (0000ms, 0608ms total)
T2ACC 090:265 JLINK_ReadReg(R5)  returns 0x1FFF9160 (0000ms, 0608ms total)
T2ACC 090:265 JLINK_ReadReg(R6)  returns 0x00000000 (0000ms, 0608ms total)
T2ACC 090:265 JLINK_ReadReg(R7)  returns 0x00000000 (0000ms, 0608ms total)
T2ACC 090:265 JLINK_ReadReg(R8)  returns 0x00000000 (0000ms, 0608ms total)
T2ACC 090:265 JLINK_ReadReg(R9)  returns 0x20000530 (0000ms, 0608ms total)
T2ACC 090:265 JLINK_ReadReg(R10)  returns 0x00002094 (0000ms, 0608ms total)
T2ACC 090:265 JLINK_ReadReg(R11)  returns 0x00002094 (0000ms, 0608ms total)
T2ACC 090:265 JLINK_ReadReg(R12)  returns 0x00000000 (0000ms, 0608ms total)
T2ACC 090:265 JLINK_ReadReg(R13 (SP))  returns 0x1FFF95C0 (0000ms, 0608ms total)
T2ACC 090:265 JLINK_ReadReg(R14)  returns 0x00000221 (0000ms, 0608ms total)
T2ACC 090:265 JLINK_ReadReg(R15 (PC))  returns 0x000003EA (0000ms, 0608ms total)
T2ACC 090:265 JLINK_ReadReg(XPSR)  returns 0x41000000 (0000ms, 0608ms total)
T2ACC 090:265 JLINK_ReadReg(MSP)  returns 0x1FFF95C0 (0000ms, 0608ms total)
T2ACC 090:265 JLINK_ReadReg(PSP)  returns 0x20001000 (0000ms, 0608ms total)
T2ACC 090:265 JLINK_ReadReg(CFBP)  returns 0x00000001 (0000ms, 0608ms total)
T4080 090:268 JLINK_ReadMemEx(0x000003EA, 0x0002 Bytes, ..., Flags = 0x02000000) -- CPU_ReadMem(64 bytes @ 0x000003C0) -- Updating C cache (64 bytes @ 0x000003C0) -- Read from C cache (2 bytes @ 0x000003EA) - Data: 70 47  returns 0x02 (0001ms, 0609ms total)
T4080 090:269 JLINK_ReadMemEx(0x000003EC, 0x0014 Bytes, ..., Flags = 0x02000000) -- Read from C cache (20 bytes @ 0x000003EC) - Data: 00 81 04 40 00 21 01 61 70 47 00 00 00 00 00 00 ...  returns 0x14 (0000ms, 0609ms total)
T4080 090:269 JLINK_ReadMemEx(0x00000400, 0x0028 Bytes, ..., Flags = 0x02000000) -- CPU_ReadMem(64 bytes @ 0x00000400) -- Updating C cache (64 bytes @ 0x00000400) -- Read from C cache (40 bytes @ 0x00000400) - Data: FF FF FF FF FF FF FF FF FF FF FF FF FE FF FF FF ...  returns 0x28 (0002ms, 0611ms total)
T2ACC 095:238 JLINK_ReadMemEx(0x000003EA, 0x0002 Bytes, ..., Flags = 0x02000000) -- Read from C cache (2 bytes @ 0x000003EA) - Data: 70 47  returns 0x02 (0000ms, 0611ms total)
T2ACC 095:238 JLINK_ReadMemEx(0xF0000000, 0x0008 Bytes, ..., Flags = 0x02000004) -- CPU_ReadMem(8 bytes @ 0xF0000000) - Data: FC BB 00 00 9F 00 00 00  returns 0x08 (0001ms, 0612ms total)
T2ACC 095:239 JLINK_Step() -- Read from C cache (2 bytes @ 0x000003EA) -- CPU_ReadMem(4 bytes @ 0xE0001004) -- Simulated  returns 0x00 (0000ms, 0612ms total)
T2ACC 095:239 JLINK_ReadReg(R15 (PC))  returns 0x00000220 (0000ms, 0612ms total)
T2ACC 095:239 JLINK_ReadReg(XPSR)  returns 0x41000000 (0000ms, 0612ms total)
T2ACC 095:239 JLINK_ReadReg(R0)  returns 0x00000000 (0000ms, 0612ms total)
T2ACC 095:239 JLINK_ReadReg(R1)  returns 0x40048100 (0000ms, 0612ms total)
T2ACC 095:239 JLINK_ReadReg(R2)  returns 0x1FFF91C0 (0000ms, 0612ms total)
T2ACC 095:239 JLINK_ReadReg(R3)  returns 0x1FFF91C0 (0000ms, 0612ms total)
T2ACC 095:239 JLINK_ReadReg(R4)  returns 0x00002094 (0000ms, 0612ms total)
T2ACC 095:239 JLINK_ReadReg(R5)  returns 0x1FFF9160 (0001ms, 0613ms total)
T2ACC 095:240 JLINK_ReadReg(R6)  returns 0x00000000 (0000ms, 0613ms total)
T2ACC 095:240 JLINK_ReadReg(R7)  returns 0x00000000 (0000ms, 0613ms total)
T2ACC 095:240 JLINK_ReadReg(R8)  returns 0x00000000 (0000ms, 0613ms total)
T2ACC 095:240 JLINK_ReadReg(R9)  returns 0x20000530 (0000ms, 0613ms total)
T2ACC 095:240 JLINK_ReadReg(R10)  returns 0x00002094 (0000ms, 0613ms total)
T2ACC 095:240 JLINK_ReadReg(R11)  returns 0x00002094 (0000ms, 0613ms total)
T2ACC 095:240 JLINK_ReadReg(R12)  returns 0x00000000 (0000ms, 0613ms total)
T2ACC 095:240 JLINK_ReadReg(R13 (SP))  returns 0x1FFF95C0 (0000ms, 0613ms total)
T2ACC 095:240 JLINK_ReadReg(R14)  returns 0x00000221 (0000ms, 0613ms total)
T2ACC 095:240 JLINK_ReadReg(R15 (PC))  returns 0x00000220 (0000ms, 0613ms total)
T2ACC 095:240 JLINK_ReadReg(XPSR)  returns 0x41000000 (0000ms, 0613ms total)
T2ACC 095:240 JLINK_ReadReg(MSP)  returns 0x1FFF95C0 (0000ms, 0613ms total)
T2ACC 095:240 JLINK_ReadReg(PSP)  returns 0x20001000 (0000ms, 0613ms total)
T2ACC 095:240 JLINK_ReadReg(CFBP)  returns 0x00000001 (0000ms, 0613ms total)
T4080 095:246 JLINK_ReadMemEx(0x00000220, 0x003C Bytes, ..., Flags = 0x02000000) -- CPU_ReadMem(128 bytes @ 0x00000200) -- Updating C cache (128 bytes @ 0x00000200) -- Read from C cache (60 bytes @ 0x00000220) - Data: 62 B6 13 48 00 47 FE E7 FE E7 FE E7 FE E7 FE E7 ...  returns 0x3C (0002ms, 0615ms total)
T2ACC 098:006 JLINK_ReadMemEx(0x00000220, 0x0002 Bytes, ..., Flags = 0x02000000) -- Read from C cache (2 bytes @ 0x00000220) - Data: 62 B6  returns 0x02 (0000ms, 0615ms total)
T2ACC 098:006 JLINK_ReadMemEx(0xF0000000, 0x0008 Bytes, ..., Flags = 0x02000004) -- CPU_ReadMem(8 bytes @ 0xF0000000) - Data: FC BB 00 00 9F 00 00 00  returns 0x08 (0000ms, 0615ms total)
T2ACC 098:006 JLINK_Step() -- Read from C cache (2 bytes @ 0x00000220) -- Not simulated -- CPU_WriteMem(4 bytes @ 0xE0001004)  returns 0x00 (0007ms, 0622ms total)
T2ACC 098:013 JLINK_ReadReg(R15 (PC))  returns 0x00000222 (0000ms, 0622ms total)
T2ACC 098:013 JLINK_ReadReg(XPSR)  returns 0x41000000 (0000ms, 0622ms total)
T2ACC 098:013 JLINK_ReadReg(R0)  returns 0x00000000 (0000ms, 0622ms total)
T2ACC 098:013 JLINK_ReadReg(R1)  returns 0x40048100 (0000ms, 0622ms total)
T2ACC 098:013 JLINK_ReadReg(R2)  returns 0x1FFF91C0 (0000ms, 0622ms total)
T2ACC 098:013 JLINK_ReadReg(R3)  returns 0x1FFF91C0 (0000ms, 0622ms total)
T2ACC 098:013 JLINK_ReadReg(R4)  returns 0x00002094 (0000ms, 0622ms total)
T2ACC 098:013 JLINK_ReadReg(R5)  returns 0x1FFF9160 (0000ms, 0622ms total)
T2ACC 098:013 JLINK_ReadReg(R6)  returns 0x00000000 (0000ms, 0622ms total)
T2ACC 098:013 JLINK_ReadReg(R7)  returns 0x00000000 (0000ms, 0622ms total)
T2ACC 098:013 JLINK_ReadReg(R8)  returns 0x00000000 (0000ms, 0622ms total)
T2ACC 098:013 JLINK_ReadReg(R9)  returns 0x20000530 (0000ms, 0622ms total)
T2ACC 098:013 JLINK_ReadReg(R10)  returns 0x00002094 (0000ms, 0622ms total)
T2ACC 098:013 JLINK_ReadReg(R11)  returns 0x00002094 (0000ms, 0622ms total)
T2ACC 098:013 JLINK_ReadReg(R12)  returns 0x00000000 (0000ms, 0622ms total)
T2ACC 098:013 JLINK_ReadReg(R13 (SP))  returns 0x1FFF95C0 (0000ms, 0622ms total)
T2ACC 098:013 JLINK_ReadReg(R14)  returns 0x00000221 (0000ms, 0622ms total)
T2ACC 098:013 JLINK_ReadReg(R15 (PC))  returns 0x00000222 (0000ms, 0622ms total)
T2ACC 098:013 JLINK_ReadReg(XPSR)  returns 0x41000000 (0000ms, 0622ms total)
T2ACC 098:013 JLINK_ReadReg(MSP)  returns 0x1FFF95C0 (0000ms, 0622ms total)
T2ACC 098:013 JLINK_ReadReg(PSP)  returns 0x20001000 (0000ms, 0622ms total)
T2ACC 098:013 JLINK_ReadReg(CFBP)  returns 0x00000000 (0000ms, 0622ms total)
T4080 098:017 JLINK_ReadMemEx(0x00000220, 0x003C Bytes, ..., Flags = 0x02000000) -- CPU_ReadMem(128 bytes @ 0x00000200) -- Updating C cache (128 bytes @ 0x00000200) -- Read from C cache (60 bytes @ 0x00000220) - Data: 62 B6 13 48 00 47 FE E7 FE E7 FE E7 FE E7 FE E7 ...  returns 0x3C (0002ms, 0624ms total)
T2ACC 107:252 JLINK_ReadMemEx(0x00000222, 0x0002 Bytes, ..., Flags = 0x02000000) -- Read from C cache (2 bytes @ 0x00000222) - Data: 13 48  returns 0x02 (0000ms, 0624ms total)
T2ACC 107:252 JLINK_ReadMemEx(0xF0000000, 0x0008 Bytes, ..., Flags = 0x02000004) -- CPU_ReadMem(8 bytes @ 0xF0000000) - Data: FC BB 00 00 9F 00 00 00  returns 0x08 (0001ms, 0625ms total)
T2ACC 107:253 JLINK_Step() -- Read from C cache (2 bytes @ 0x00000222) -- CPU_ReadMem(4 bytes @ 0xE0001004) -- Read from C cache (4 bytes @ 0x00000270) -- Simulated  returns 0x00 (0001ms, 0626ms total)
T2ACC 107:254 JLINK_ReadReg(R15 (PC))  returns 0x00000224 (0000ms, 0626ms total)
T2ACC 107:254 JLINK_ReadReg(XPSR)  returns 0x41000000 (0000ms, 0626ms total)
T2ACC 107:254 JLINK_ReadReg(R0)  returns 0x000000C1 (0000ms, 0626ms total)
T2ACC 107:254 JLINK_ReadReg(R1)  returns 0x40048100 (0000ms, 0626ms total)
T2ACC 107:254 JLINK_ReadReg(R2)  returns 0x1FFF91C0 (0000ms, 0626ms total)
T2ACC 107:254 JLINK_ReadReg(R3)  returns 0x1FFF91C0 (0000ms, 0626ms total)
T2ACC 107:254 JLINK_ReadReg(R4)  returns 0x00002094 (0000ms, 0626ms total)
T2ACC 107:254 JLINK_ReadReg(R5)  returns 0x1FFF9160 (0000ms, 0626ms total)
T2ACC 107:254 JLINK_ReadReg(R6)  returns 0x00000000 (0000ms, 0626ms total)
T2ACC 107:254 JLINK_ReadReg(R7)  returns 0x00000000 (0000ms, 0626ms total)
T2ACC 107:254 JLINK_ReadReg(R8)  returns 0x00000000 (0000ms, 0626ms total)
T2ACC 107:254 JLINK_ReadReg(R9)  returns 0x20000530 (0000ms, 0626ms total)
T2ACC 107:254 JLINK_ReadReg(R10)  returns 0x00002094 (0000ms, 0626ms total)
T2ACC 107:254 JLINK_ReadReg(R11)  returns 0x00002094 (0000ms, 0626ms total)
T2ACC 107:254 JLINK_ReadReg(R12)  returns 0x00000000 (0000ms, 0626ms total)
T2ACC 107:254 JLINK_ReadReg(R13 (SP))  returns 0x1FFF95C0 (0000ms, 0626ms total)
T2ACC 107:254 JLINK_ReadReg(R14)  returns 0x00000221 (0000ms, 0626ms total)
T2ACC 107:254 JLINK_ReadReg(R15 (PC))  returns 0x00000224 (0000ms, 0626ms total)
T2ACC 107:254 JLINK_ReadReg(XPSR)  returns 0x41000000 (0000ms, 0626ms total)
T2ACC 107:254 JLINK_ReadReg(MSP)  returns 0x1FFF95C0 (0000ms, 0626ms total)
T2ACC 107:254 JLINK_ReadReg(PSP)  returns 0x20001000 (0000ms, 0626ms total)
T2ACC 107:254 JLINK_ReadReg(CFBP)  returns 0x00000000 (0000ms, 0626ms total)
T4080 129:181 JLINK_ReadMemEx(0x00000222, 0x0002 Bytes, ..., Flags = 0x02000000) -- Read from C cache (2 bytes @ 0x00000222) - Data: 13 48  returns 0x02 (0000ms, 0626ms total)
T4080 129:181 JLINK_ReadMemEx(0x00000224, 0x003C Bytes, ..., Flags = 0x02000000) -- Read from C cache (60 bytes @ 0x00000224) - Data: 00 47 FE E7 FE E7 FE E7 FE E7 FE E7 10 48 00 47 ...  returns 0x3C (0000ms, 0626ms total)
T4080 334:404 JLINK_ReadMemEx(0x00000220, 0x003C Bytes, ..., Flags = 0x02000000) -- Read from C cache (60 bytes @ 0x00000220) - Data: 62 B6 13 48 00 47 FE E7 FE E7 FE E7 FE E7 FE E7 ...  returns 0x3C (0000ms, 0626ms total)
T2ACC 374:070 JLINK_ReadMemEx(0x00000224, 0x0002 Bytes, ..., Flags = 0x02000000) -- Read from C cache (2 bytes @ 0x00000224) - Data: 00 47  returns 0x02 (0000ms, 0626ms total)
T2ACC 374:070 JLINK_ReadMemEx(0xF0000000, 0x0008 Bytes, ..., Flags = 0x02000004) -- CPU_ReadMem(8 bytes @ 0xF0000000) - Data: FC BB 00 00 9F 00 00 00  returns 0x08 (0000ms, 0626ms total)
T2ACC 374:070 JLINK_Step() -- Read from C cache (2 bytes @ 0x00000224) -- Simulated  returns 0x00 (0001ms, 0627ms total)
T2ACC 374:071 JLINK_ReadReg(R15 (PC))  returns 0x000000C0 (0000ms, 0627ms total)
T2ACC 374:071 JLINK_ReadReg(XPSR)  returns 0x41000000 (0000ms, 0627ms total)
T2ACC 374:071 JLINK_ReadMemEx(0x000000BE, 0x0002 Bytes, ..., Flags = 0x02000000) -- CPU_ReadMem(64 bytes @ 0x00000080) -- Updating C cache (64 bytes @ 0x00000080) -- Read from C cache (2 bytes @ 0x000000BE) - Data: 00 00  returns 0x02 (0001ms, 0628ms total)
T2ACC 374:072 JLINK_ReadMemEx(0x000000C0, 0x003C Bytes, ..., Flags = 0x02000000) -- CPU_ReadMem(64 bytes @ 0x000000C0) -- Updating C cache (64 bytes @ 0x000000C0) -- Read from C cache (60 bytes @ 0x000000C0) - Data: 00 F0 02 F8 00 F0 3E F8 0C A0 30 C8 08 38 24 18 ...  returns 0x3C (0002ms, 0630ms total)
T2ACC 374:074 JLINK_ReadMemEx(0x000000C0, 0x0002 Bytes, ..., Flags = 0x02000000) -- Read from C cache (2 bytes @ 0x000000C0) - Data: 00 F0  returns 0x02 (0000ms, 0630ms total)
T2ACC 374:074 JLINK_ReadMemEx(0x000000C0, 0x003C Bytes, ..., Flags = 0x02000000) -- Read from C cache (60 bytes @ 0x000000C0) - Data: 00 F0 02 F8 00 F0 3E F8 0C A0 30 C8 08 38 24 18 ...  returns 0x3C (0000ms, 0630ms total)
T2ACC 374:074 JLINK_ReadMemEx(0x000000C0, 0x0002 Bytes, ..., Flags = 0x02000000) -- Read from C cache (2 bytes @ 0x000000C0) - Data: 00 F0  returns 0x02 (0000ms, 0630ms total)
T2ACC 374:074 JLINK_ReadMemEx(0x000000C2, 0x0002 Bytes, ..., Flags = 0x02000000) -- Read from C cache (2 bytes @ 0x000000C2) - Data: 02 F8  returns 0x02 (0000ms, 0630ms total)
T2ACC 374:074 JLINK_ReadMemEx(0xF0000000, 0x0008 Bytes, ..., Flags = 0x02000004) -- CPU_ReadMem(8 bytes @ 0xF0000000) - Data: FC BB 00 00 9F 00 00 00  returns 0x08 (0001ms, 0631ms total)
